T10F4 256907:129 SEGGER J-Link V4.98e Log File (0072ms, 37293ms total)
T10F4 256907:129 DLL Compiled: May  5 2015 11:00:52 (0072ms, 37293ms total)
T10F4 256907:129 Logging started @ 2017-08-21 10:55 (0087ms, 37308ms total)
T10F4 256907:227 JLINK_ExecCommand("Device = ATSAMG55J19", ...)Device "ATSAMG55J19" selected.  returns 0x00 (0002ms, 37312ms total)
T10F4 256907:266 JLINK_ExecCommand("ProjectFile = F:\github\yuneec\lgdst_module\rx\atmel\samg55\taisync\proj-rx\jlink.config", ...)  returns 0x00 (0003ms, 37315ms total)
T10F4 256907:278 JLINK_ExecCommand("Device = ATSAMG55J19", ...)Device "ATSAMG55J19" selected.  returns 0x00 (0002ms, 37318ms total)
T10F4 256907:281 JLINK_TIF_Select(JLINKARM_TIF_SWD)  returns 0x00 (0024ms, 37342ms total)
T10F4 256907:305 JLINK_SetSpeed(4000) (0002ms, 37344ms total)
T10F4 256907:307 JLINK_ResetPullsRESET(OFF) (0000ms, 37344ms total)
T10F4 256907:307 JLINK_Connect() >0x108 TIF>Found SWD-DP with ID 0x2BA01477 >0x0D TIF> >0x21 TIF> >0x0D TIF> >0x28 TIF> >0x0D TIF> >0x28 TIF> >0x0D TIF> >0x21 TIF> >0x0D TIF> >0x28 TIF> >0x0D TIF> >0x21 TIF> >0x0D TIF> >0x21 TIF> >0x0D TIF> >0x21 TIF> >0x0D TIF> >0x21 TIF> >0x0D TIF> >0x28 TIF> >0x0D TIF> >0x28 TIF> >0x0D TIF> >0x21 TIF> >0x0D TIF> >0x28 TIF> >0x0D TIF> >0x28 TIF> >0x0D TIF> >0x28 TIF> >0x0D TIF> >0x21 TIF> >0x0D TIF> >0x21 TIF> >0x0D TIF> >0x28 TIF> >0x0D TIF> >0x21 TIF> >0x0D TIF>
 >0x21 TIF>Found Cortex-M4 r0p1, Little endian. -- CPU_WriteMem(4 bytes @ 0xE0002000) -- CPU_ReadMem(4 bytes @ 0xE000EDF0) -- CPU_WriteMem(4 bytes @ 0xE000EDF0) -- CPU_ReadMem(4 bytes @ 0xE0002000)FPUnit: 6 code (BP) slots and 2 literal slots -- CPU_ReadMem(4 bytes @ 0xE000EDFC) -- CPU_ReadMem(4 bytes @ 0xE0001000) -- CPU_WriteMem(4 bytes @ 0xE0001000) -- CPU_ReadMem(4 bytes @ 0xE000ED88) -- CPU_WriteMem(4 bytes @ 0xE000ED88) -- CPU_ReadMem(4 bytes @ 0xE000ED88) -- CPU_WriteMem(4 bytes @ 0xE000ED88)
CoreSight components:ROMTbl 0 @ E00FF000 -- CPU_ReadMem(16 bytes @ 0xE00FF000) -- CPU_ReadMem(16 bytes @ 0xE000EFF0) -- CPU_ReadMem(16 bytes @ 0xE000EFE0)ROMTbl 0 [0]: FFF0F000, CID: B105E00D, PID: 000BB00C SCS -- CPU_ReadMem(16 bytes @ 0xE0001FF0) -- CPU_ReadMem(16 bytes @ 0xE0001FE0)ROMTbl 0 [1]: FFF02000, CID: B105E00D, PID: 003BB002 DWT -- CPU_ReadMem(16 bytes @ 0xE0002FF0) -- CPU_ReadMem(16 bytes @ 0xE0002FE0)ROMTbl 0 [2]: FFF03000, CID: B105E00D, PID: 002BB003 FPB
 -- CPU_ReadMem(16 bytes @ 0xE0000FF0) -- CPU_ReadMem(16 bytes @ 0xE0000FE0)ROMTbl 0 [3]: FFF01000, CID: B105E00D, PID: 003BB001 ITM -- CPU_ReadMem(16 bytes @ 0xE00FF010) -- CPU_ReadMem(16 bytes @ 0xE0040FF0) -- CPU_ReadMem(16 bytes @ 0xE0040FE0)ROMTbl 0 [4]: FFF41000, CID: B105900D, PID: 000BB9A1 TPIU  returns 0x00 (0173ms, 37517ms total)
T10F4 256907:482 JLINK_GetDebugInfo(0x100) -- Value=0xE00FF003  returns 0x00 (0003ms, 37522ms total)
T10F4 256907:486 JLINK_ReadMem (0xE00FFFF0, 0x0010 Bytes, ...) -- CPU is running -- CPU_ReadMem(16 bytes @ 0xE00FFFF0) - Data: 0D 00 00 00 10 00 00 00 05 00 00 00 B1 00 00 00  returns 0x00 (0005ms, 37528ms total)
T10F4 256907:492 JLINK_ReadMem (0xE00FFFD0, 0x0020 Bytes, ...) -- CPU is running -- CPU_ReadMem(32 bytes @ 0xE00FFFD0) - Data: 04 00 00 00 00 00 00 00 00 00 00 00 00 00 00 00 ...  returns 0x00 (0005ms, 37534ms total)
T10F4 256907:497 JLINK_ReadMemU32(0xE00FF000, 0x0001 Items, ...) -- CPU is running -- CPU_ReadMem(4 bytes @ 0xE00FF000) - Data: 03 F0 F0 FF  returns 0x01 (0006ms, 37540ms total)
T10F4 256907:503 JLINK_ReadMem (0xE000EFF0, 0x0010 Bytes, ...) -- CPU is running -- CPU_ReadMem(16 bytes @ 0xE000EFF0) - Data: 0D 00 00 00 E0 00 00 00 05 00 00 00 B1 00 00 00  returns 0x00 (0008ms, 37548ms total)
T10F4 256907:514 JLINK_ReadMem (0xE000EFD0, 0x0020 Bytes, ...) -- CPU is running -- CPU_ReadMem(32 bytes @ 0xE000EFD0) - Data: 04 00 00 00 00 00 00 00 00 00 00 00 00 00 00 00 ...  returns 0x00 (0010ms, 37561ms total)
T10F4 256907:526 JLINK_ReadMemU32(0xE00FF004, 0x0001 Items, ...) -- CPU is running -- CPU_ReadMem(4 bytes @ 0xE00FF004) - Data: 03 20 F0 FF  returns 0x01 (0009ms, 37572ms total)
T10F4 256907:536 JLINK_ReadMem (0xE0001FF0, 0x0010 Bytes, ...) -- CPU is running -- CPU_ReadMem(16 bytes @ 0xE0001FF0) - Data: 0D 00 00 00 E0 00 00 00 05 00 00 00 B1 00 00 00  returns 0x00 (0008ms, 37581ms total)
T10F4 256907:545 JLINK_ReadMem (0xE0001FD0, 0x0020 Bytes, ...) -- CPU is running -- CPU_ReadMem(32 bytes @ 0xE0001FD0) - Data: 04 00 00 00 00 00 00 00 00 00 00 00 00 00 00 00 ...  returns 0x00 (0003ms, 37585ms total)
T10F4 256907:548 JLINK_ReadMemU32(0xE00FF008, 0x0001 Items, ...) -- CPU is running -- CPU_ReadMem(4 bytes @ 0xE00FF008) - Data: 03 30 F0 FF  returns 0x01 (0002ms, 37587ms total)
T10F4 256907:550 JLINK_ReadMem (0xE0002FF0, 0x0010 Bytes, ...) -- CPU is running -- CPU_ReadMem(16 bytes @ 0xE0002FF0) - Data: 0D 00 00 00 E0 00 00 00 05 00 00 00 B1 00 00 00  returns 0x00 (0002ms, 37589ms total)
T10F4 256907:552 JLINK_ReadMem (0xE0002FD0, 0x0020 Bytes, ...) -- CPU is running -- CPU_ReadMem(32 bytes @ 0xE0002FD0) - Data: 04 00 00 00 00 00 00 00 00 00 00 00 00 00 00 00 ...  returns 0x00 (0011ms, 37600ms total)
T10F4 256907:563 JLINK_ReadMemU32(0xE00FF00C, 0x0001 Items, ...) -- CPU is running -- CPU_ReadMem(4 bytes @ 0xE00FF00C) - Data: 03 10 F0 FF  returns 0x01 (0007ms, 37607ms total)
T10F4 256907:572 JLINK_ReadMem (0xE0000FF0, 0x0010 Bytes, ...) -- CPU is running -- CPU_ReadMem(16 bytes @ 0xE0000FF0) - Data: 0D 00 00 00 E0 00 00 00 05 00 00 00 B1 00 00 00  returns 0x00 (0006ms, 37615ms total)
T10F4 256907:579 JLINK_ReadMem (0xE0000FD0, 0x0020 Bytes, ...) -- CPU is running -- CPU_ReadMem(32 bytes @ 0xE0000FD0) - Data: 04 00 00 00 00 00 00 00 00 00 00 00 00 00 00 00 ...  returns 0x00 (0006ms, 37622ms total)
T10F4 256907:585 JLINK_ReadMemU32(0xE00FF010, 0x0001 Items, ...) -- CPU is running -- CPU_ReadMem(4 bytes @ 0xE00FF010) - Data: 03 10 F4 FF  returns 0x01 (0003ms, 37625ms total)
T10F4 256907:588 JLINK_ReadMem (0xE0040FF0, 0x0010 Bytes, ...) -- CPU is running -- CPU_ReadMem(16 bytes @ 0xE0040FF0) - Data: 0D 00 00 00 90 00 00 00 05 00 00 00 B1 00 00 00  returns 0x00 (0009ms, 37634ms total)
T10F4 256907:597 JLINK_ReadMem (0xE0040FD0, 0x0020 Bytes, ...) -- CPU is running -- CPU_ReadMem(32 bytes @ 0xE0040FD0) - Data: 04 00 00 00 00 00 00 00 00 00 00 00 00 00 00 00 ...  returns 0x00 (0004ms, 37638ms total)
T10F4 256907:603 JLINK_ReadMemU32(0xE00FF014, 0x0001 Items, ...) -- CPU is running -- CPU_ReadMem(4 bytes @ 0xE00FF014) - Data: 02 20 F4 FF  returns 0x01 (0009ms, 37649ms total)
T10F4 256907:614 JLINK_ReadMemU32(0xE00FF018, 0x0001 Items, ...) -- CPU is running -- CPU_ReadMem(4 bytes @ 0xE00FF018) - Data: 00 00 00 00  returns 0x01 (0006ms, 37657ms total)
T10F4 256907:622 JLINK_ReadMem (0xE0001000, 0x0004 Bytes, ...) -- CPU is running -- CPU_ReadMem(4 bytes @ 0xE0001000) - Data: 01 00 00 40  returns 0x00 (0011ms, 37670ms total)
T10F4 256907:633 JLINK_ReadMem (0xE0001000, 0x0004 Bytes, ...) -- CPU is running -- CPU_ReadMem(4 bytes @ 0xE0001000) - Data: 01 00 00 40  returns 0x00 (0005ms, 37675ms total)
T10F4 256907:640 JLINK_ReadMem (0xE0001028, 0x0004 Bytes, ...) -- CPU is running -- CPU_ReadMem(4 bytes @ 0xE0001028) - Data: 00 00 00 00  returns 0x00 (0006ms, 37683ms total)
T10F4 256907:647 JLINK_WriteMem(0xE0001028, 0x0004 Bytes, ...) - Data: 00 01 00 00 -- CPU is running -- CPU_WriteMem(4 bytes @ 0xE0001028)  returns 0x04 (0013ms, 37697ms total)
T10F4 256907:660 JLINK_ReadMem (0xE0001028, 0x0004 Bytes, ...) -- CPU is running -- CPU_ReadMem(4 bytes @ 0xE0001028) - Data: 00 00 00 00  returns 0x00 (0010ms, 37707ms total)
T10F4 256907:671 JLINK_ReadMem (0xE0001038, 0x0004 Bytes, ...) -- CPU is running -- CPU_ReadMem(4 bytes @ 0xE0001038) - Data: 00 02 00 00  returns 0x00 (0007ms, 37715ms total)
T10F4 256907:680 JLINK_WriteMem(0xE0001038, 0x0004 Bytes, ...) - Data: 00 03 00 00 -- CPU is running -- CPU_WriteMem(4 bytes @ 0xE0001038)  returns 0x04 (0003ms, 37718ms total)
T10F4 256907:683 JLINK_ReadMem (0xE0001038, 0x0004 Bytes, ...) -- CPU is running -- CPU_ReadMem(4 bytes @ 0xE0001038) - Data: 00 03 00 00  returns 0x00 (0005ms, 37723ms total)
T10F4 256907:688 JLINK_ReadMem (0xE0001048, 0x0004 Bytes, ...) -- CPU is running -- CPU_ReadMem(4 bytes @ 0xE0001048) - Data: 00 00 00 00  returns 0x00 (0003ms, 37726ms total)
T10F4 256907:692 JLINK_WriteMem(0xE0001048, 0x0004 Bytes, ...) - Data: 00 01 00 00 -- CPU is running -- CPU_WriteMem(4 bytes @ 0xE0001048)  returns 0x04 (0005ms, 37732ms total)
T10F4 256907:698 JLINK_ReadMem (0xE0001048, 0x0004 Bytes, ...) -- CPU is running -- CPU_ReadMem(4 bytes @ 0xE0001048) - Data: 00 00 00 00  returns 0x00 (0006ms, 37739ms total)
T10F4 256907:705 JLINK_ReadMem (0xE0001058, 0x0004 Bytes, ...) -- CPU is running -- CPU_ReadMem(4 bytes @ 0xE0001058) - Data: 00 00 00 00  returns 0x00 (0010ms, 37750ms total)
T10F4 256907:715 JLINK_WriteMem(0xE0001058, 0x0004 Bytes, ...) - Data: 00 01 00 00 -- CPU is running -- CPU_WriteMem(4 bytes @ 0xE0001058)  returns 0x04 (0002ms, 37752ms total)
T10F4 256907:717 JLINK_ReadMem (0xE0001058, 0x0004 Bytes, ...) -- CPU is running -- CPU_ReadMem(4 bytes @ 0xE0001058) - Data: 00 00 00 00  returns 0x00 (0006ms, 37758ms total)
T10F4 256907:724 JLINK_ReadMem (0xE0001024, 0x0004 Bytes, ...) -- CPU is running -- CPU_ReadMem(4 bytes @ 0xE0001024) - Data: 00 00 00 00  returns 0x00 (0013ms, 37772ms total)
T10F4 256907:739 JLINK_WriteMem(0xE0001024, 0x0004 Bytes, ...) - Data: 1F 00 00 00 -- CPU is running -- CPU_WriteMem(4 bytes @ 0xE0001024)  returns 0x04 (0010ms, 37784ms total)
T10F4 256907:750 JLINK_ReadMem (0xE0001024, 0x0004 Bytes, ...) -- CPU is running -- CPU_ReadMem(4 bytes @ 0xE0001024) - Data: 0F 00 00 00  returns 0x00 (0012ms, 37797ms total)
T10F4 256907:763 JLINK_ReadMem (0xE0001034, 0x0004 Bytes, ...) -- CPU is running -- CPU_ReadMem(4 bytes @ 0xE0001034) - Data: 00 00 00 00  returns 0x00 (0009ms, 37807ms total)
T10F4 256907:772 JLINK_WriteMem(0xE0001034, 0x0004 Bytes, ...) - Data: 1F 00 00 00 -- CPU is running -- CPU_WriteMem(4 bytes @ 0xE0001034)  returns 0x04 (0007ms, 37814ms total)
T10F4 256907:780 JLINK_ReadMem (0xE0001034, 0x0004 Bytes, ...) -- CPU is running -- CPU_ReadMem(4 bytes @ 0xE0001034) - Data: 0F 00 00 00  returns 0x00 (0006ms, 37821ms total)
T10F4 256907:787 JLINK_ReadMem (0xE0001044, 0x0004 Bytes, ...) -- CPU is running -- CPU_ReadMem(4 bytes @ 0xE0001044) - Data: 00 00 00 00  returns 0x00 (0010ms, 37832ms total)
T10F4 256907:799 JLINK_WriteMem(0xE0001044, 0x0004 Bytes, ...) - Data: 1F 00 00 00 -- CPU is running -- CPU_WriteMem(4 bytes @ 0xE0001044)  returns 0x04 (0004ms, 37838ms total)
T10F4 256907:805 JLINK_ReadMem (0xE0001044, 0x0004 Bytes, ...) -- CPU is running -- CPU_ReadMem(4 bytes @ 0xE0001044) - Data: 0F 00 00 00  returns 0x00 (0005ms, 37845ms total)
T10F4 256907:811 JLINK_ReadMem (0xE0001054, 0x0004 Bytes, ...) -- CPU is running -- CPU_ReadMem(4 bytes @ 0xE0001054) - Data: 00 00 00 00  returns 0x00 (0009ms, 37855ms total)
T10F4 256907:820 JLINK_WriteMem(0xE0001054, 0x0004 Bytes, ...) - Data: 1F 00 00 00 -- CPU is running -- CPU_WriteMem(4 bytes @ 0xE0001054)  returns 0x04 (0006ms, 37861ms total)
T10F4 256907:827 JLINK_ReadMem (0xE0001054, 0x0004 Bytes, ...) -- CPU is running -- CPU_ReadMem(4 bytes @ 0xE0001054) - Data: 0F 00 00 00  returns 0x00 (0005ms, 37867ms total)
T10F4 256907:834 JLINK_ReadMem (0xE0001028, 0x0004 Bytes, ...) -- CPU is running -- CPU_ReadMem(4 bytes @ 0xE0001028) - Data: 00 00 00 00  returns 0x00 (0006ms, 37875ms total)
T10F4 256907:842 JLINK_ReadMem (0xE0001038, 0x0004 Bytes, ...) -- CPU is running -- CPU_ReadMem(4 bytes @ 0xE0001038) - Data: 00 03 00 00  returns 0x00 (0007ms, 37884ms total)
T10F4 256907:849 JLINK_ReadMem (0xE0001048, 0x0004 Bytes, ...) -- CPU is running -- CPU_ReadMem(4 bytes @ 0xE0001048) - Data: 00 00 00 00  returns 0x00 (0005ms, 37889ms total)
T10F4 256907:854 JLINK_ReadMem (0xE0001058, 0x0004 Bytes, ...) -- CPU is running -- CPU_ReadMem(4 bytes @ 0xE0001058) - Data: 00 00 00 00  returns 0x00 (0003ms, 37892ms total)
T10F4 256907:857 JLINK_WriteMem(0xE0001020, 0x0004 Bytes, ...) - Data: 00 00 00 00 -- CPU is running -- CPU_WriteMem(4 bytes @ 0xE0001020)  returns 0x04 (0005ms, 37897ms total)
T10F4 256907:862 JLINK_WriteMem(0xE0001024, 0x0004 Bytes, ...) - Data: 00 00 00 00 -- CPU is running -- CPU_WriteMem(4 bytes @ 0xE0001024)  returns 0x04 (0003ms, 37900ms total)
T10F4 256907:865 JLINK_WriteMem(0xE0001028, 0x0004 Bytes, ...) - Data: 00 00 00 00 -- CPU is running -- CPU_WriteMem(4 bytes @ 0xE0001028)  returns 0x04 (0005ms, 37905ms total)
T10F4 256907:870 JLINK_WriteMem(0xE0001030, 0x0004 Bytes, ...) - Data: 00 00 00 00 -- CPU is running -- CPU_WriteMem(4 bytes @ 0xE0001030)  returns 0x04 (0004ms, 37909ms total)
T10F4 256907:874 JLINK_WriteMem(0xE0001034, 0x0004 Bytes, ...) - Data: 00 00 00 00 -- CPU is running -- CPU_WriteMem(4 bytes @ 0xE0001034)  returns 0x04 (0006ms, 37915ms total)
T10F4 256907:880 JLINK_WriteMem(0xE0001038, 0x0004 Bytes, ...) - Data: 00 00 00 00 -- CPU is running -- CPU_WriteMem(4 bytes @ 0xE0001038)  returns 0x04 (0007ms, 37922ms total)
T10F4 256907:888 JLINK_WriteMem(0xE0001040, 0x0004 Bytes, ...) - Data: 00 00 00 00 -- CPU is running -- CPU_WriteMem(4 bytes @ 0xE0001040)  returns 0x04 (0004ms, 37927ms total)
T10F4 256907:893 JLINK_WriteMem(0xE0001044, 0x0004 Bytes, ...) - Data: 00 00 00 00 -- CPU is running -- CPU_WriteMem(4 bytes @ 0xE0001044)  returns 0x04 (0009ms, 37937ms total)
T10F4 256907:903 JLINK_WriteMem(0xE0001048, 0x0004 Bytes, ...) - Data: 00 00 00 00 -- CPU is running -- CPU_WriteMem(4 bytes @ 0xE0001048)  returns 0x04 (0007ms, 37945ms total)
T10F4 256907:910 JLINK_WriteMem(0xE0001050, 0x0004 Bytes, ...) - Data: 00 00 00 00 -- CPU is running -- CPU_WriteMem(4 bytes @ 0xE0001050)  returns 0x04 (0007ms, 37952ms total)
T10F4 256907:918 JLINK_WriteMem(0xE0001054, 0x0004 Bytes, ...) - Data: 00 00 00 00 -- CPU is running -- CPU_WriteMem(4 bytes @ 0xE0001054)  returns 0x04 (0007ms, 37960ms total)
T10F4 256907:925 JLINK_WriteMem(0xE0001058, 0x0004 Bytes, ...) - Data: 00 00 00 00 -- CPU is running -- CPU_WriteMem(4 bytes @ 0xE0001058)  returns 0x04 (0006ms, 37966ms total)
T10F4 256907:931 JLINK_Halt()  returns 0x00 (0004ms, 37970ms total)
T10F4 256907:935 JLINK_WriteMem(0x400E0A04, 0x0004 Bytes, ...) - Data: 0B 01 00 5A -- CPU_WriteMem(4 bytes @ 0x400E0A04)  returns 0x04 (0004ms, 37974ms total)
T10F4 256907:939 JLINK_ReadMem (0x400E0A08, 0x0004 Bytes, ...) -- CPU_ReadMem(4 bytes @ 0x400E0A08) - Data: 01 00 00 00  returns 0x00 (0003ms, 37977ms total)
T10F4 256907:942 JLINK_Reset() -- CPU_ReadMem(16 bytes @ 0x20000000) -- CPU_WriteMem(16 bytes @ 0x20000000) -- CPU_ReadMem(4 bytes @ 0xE000EDFC) -- CPU_WriteMem(4 bytes @ 0xE000EDFC) -- CPU_ReadMem(4 bytes @ 0xE0001000) -- CPU_WriteMem(4 bytes @ 0xE000EDFC) -- CPU_WriteMem(16 bytes @ 0x20000000) -- CPU_WriteMem(4 bytes @ 0xE0002000) -- CPU_ReadMem(4 bytes @ 0xE000EDFC) -- CPU_ReadMem(4 bytes @ 0xE0001000) (0052ms, 38029ms total)
T10F4 256907:999 JLINK_JTAG_GetDeviceID(DeviceIndex = 0)  returns 0x00 (0005ms, 38035ms total)
T10F4 256908:005 JLINK_ReadMemU32(0x400E0740, 0x0001 Items, ...) -- CPU_ReadMem(4 bytes @ 0x400E0740) - Data: E0 0A 57 24  returns 0x01 (0003ms, 38039ms total)
T10F4 256908:008 JLINK_ReadMemU32(0x400E0744, 0x0001 Items, ...) -- CPU_ReadMem(4 bytes @ 0x400E0744) - Data: 00 00 00 00  returns 0x01 (0002ms, 38041ms total)
T10F4 256908:010 JLINK_WriteMem(0x400E0A04, 0x0004 Bytes, ...) - Data: 05 00 00 5A -- CPU_WriteMem(4 bytes @ 0x400E0A04)  returns 0x04 (0002ms, 38043ms total)
T17F4 256908:012 JLINK_IsHalted()  returns TRUE (0000ms, 38043ms total)
T10F4 256908:013 JLINK_ReadMem (0x400E0A08, 0x0004 Bytes, ...) -- CPU_ReadMem(4 bytes @ 0x400E0A08) - Data: 00 00 00 00  returns 0x00 (0002ms, 38046ms total)
T17F4 256908:015 JLINK_GetMOEs(...) -- CPU_ReadMem(4 bytes @ 0xE000ED30) -- CPU_WriteMem(4 bytes @ 0xE000ED30)  returns 0x01 (0004ms, 38050ms total)
T10F4 256908:019 JLINK_ReadMem (0x400E0A08, 0x0004 Bytes, ...) -- CPU_ReadMem(4 bytes @ 0x400E0A08) - Data: 00 00 00 00  returns 0x00 (0002ms, 38052ms total)
T17F4 256908:021 JLINK_ReadReg(R15 (PC))  returns 0x00408AAC (0000ms, 38052ms total)
T10F4 256908:026 JLINK_ReadMem (0x400E0A08, 0x0004 Bytes, ...) -- CPU_ReadMem(4 bytes @ 0x400E0A08) - Data: 00 00 00 00  returns 0x00 (0003ms, 38056ms total)
T10F4 256908:045 JLINK_ReadMem (0x400E0A08, 0x0004 Bytes, ...) -- CPU_ReadMem(4 bytes @ 0x400E0A08) - Data: 00 00 00 00  returns 0x00 (0005ms, 38061ms total)
T10F4 256908:115 JLINK_ReadMem (0x400E0A08, 0x0004 Bytes, ...) -- CPU_ReadMem(4 bytes @ 0x400E0A08) - Data: 00 00 00 00  returns 0x00 (0003ms, 38064ms total)
T17F4 256908:222 JLINK_IsHalted()  returns TRUE (0001ms, 38065ms total)
T10F4 256908:374 JLINK_ReadMem (0x400E0A08, 0x0004 Bytes, ...) -- CPU_ReadMem(4 bytes @ 0x400E0A08) - Data: 00 00 00 00  returns 0x00 (0016ms, 38080ms total)
T17F4 256908:423 JLINK_IsHalted()  returns TRUE (0002ms, 38083ms total)
T17F4 256908:625 JLINK_IsHalted()  returns TRUE (0021ms, 38102ms total)
T17F4 256908:846 JLINK_IsHalted()  returns TRUE (0002ms, 38083ms total)
T17F4 256909:048 JLINK_IsHalted()  returns TRUE (0002ms, 38083ms total)
T17F4 256909:250 JLINK_IsHalted()  returns TRUE (0022ms, 38103ms total)
T10F4 256909:391 JLINK_ReadMem (0x400E0A08, 0x0004 Bytes, ...) -- CPU_ReadMem(4 bytes @ 0x400E0A08) - Data: 00 00 00 00  returns 0x00 (0015ms, 38096ms total)
T10F4 256909:407 JLINK_ReadMem (0x400E0A08, 0x0004 Bytes, ...) -- CPU_ReadMem(4 bytes @ 0x400E0A08) - Data: 00 00 00 00  returns 0x00 (0005ms, 38101ms total)
T10F4 256909:414 JLINK_ReadMem (0x400E0A08, 0x0004 Bytes, ...) -- CPU_ReadMem(4 bytes @ 0x400E0A08) - Data: 00 00 00 00  returns 0x00 (0007ms, 38108ms total)
T10F4 256909:426 JLINK_ReadMem (0x400E0A08, 0x0004 Bytes, ...) -- CPU_ReadMem(4 bytes @ 0x400E0A08) - Data: 00 00 00 00  returns 0x00 (0003ms, 38111ms total)
T10F4 256909:447 JLINK_ReadMem (0x400E0A08, 0x0004 Bytes, ...) -- CPU_ReadMem(4 bytes @ 0x400E0A08) - Data: 00 00 00 00  returns 0x00 (0005ms, 38117ms total)
T17F4 256909:473 JLINK_IsHalted()  returns TRUE (0002ms, 38119ms total)
T10F4 256909:516 JLINK_ReadMem (0x400E0A08, 0x0004 Bytes, ...) -- CPU_ReadMem(4 bytes @ 0x400E0A08) - Data: 00 00 00 00  returns 0x00 (0005ms, 38122ms total)
T17F4 256909:675 JLINK_IsHalted()  returns TRUE (0004ms, 38126ms total)
T10F4 256909:789 JLINK_ReadMem (0x400E0A08, 0x0004 Bytes, ...) -- CPU_ReadMem(4 bytes @ 0x400E0A08) - Data: 00 00 00 00  returns 0x00 (0003ms, 38125ms total)
T17F4 256909:879 JLINK_IsHalted()  returns TRUE (0006ms, 38132ms total)
T17F4 256910:085 JLINK_IsHalted()  returns TRUE (0002ms, 38128ms total)
T17F4 256910:287 JLINK_IsHalted()  returns TRUE (0002ms, 38128ms total)
T17F4 256910:490 JLINK_IsHalted()  returns TRUE (0004ms, 38130ms total)
T17F4 256910:697 JLINK_IsHalted()  returns TRUE (0003ms, 38129ms total)
T10F4 256910:793 JLINK_ReadMem (0x400E0A08, 0x0004 Bytes, ...) -- CPU_ReadMem(4 bytes @ 0x400E0A08) - Data: 01 00 00 00  returns 0x00 (0005ms, 38131ms total)
T17F4 256910:900 JLINK_IsHalted()  returns TRUE (0001ms, 38133ms total)
T10F4 256910:904 JLINK_ResetPullsRESET(ON) (0002ms, 38134ms total)
T10F4 256910:906 JLINK_ResetNoHalt() >0x108 TIF>Found SWD-DP with ID 0x2BA01477 >0x0D TIF> >0x21 TIF> >0x0D TIF> >0x28 TIF> >0x0D TIF> >0x28 TIF> >0x0D TIF> >0x21 TIF> >0x0D TIF> >0x28 TIF> >0x0D TIF> >0x21 TIF> >0x0D TIF> >0x21 TIF> >0x0D TIF> >0x21 TIF> >0x0D TIF> >0x21 TIF> >0x0D TIF> >0x28 TIF> >0x0D TIF> >0x28 TIF> >0x0D TIF> >0x21 TIF> >0x0D TIF> >0x28 TIF> >0x0D TIF> >0x28 TIF> >0x0D TIF> >0x28 TIF> >0x0D TIF> >0x21 TIF> >0x0D TIF> >0x21 TIF> >0x0D TIF> >0x28 TIF> >0x0D TIF> >0x21 TIF> >0x0D TIF>
 >0x21 TIF>Found Cortex-M4 r0p1, Little endian. -- CPU_WriteMem(4 bytes @ 0xE0002000) -- CPU_ReadMem(4 bytes @ 0xE000EDF0) -- CPU_ReadMem(4 bytes @ 0xE0002000)FPUnit: 6 code (BP) slots and 2 literal slots -- CPU_ReadMem(4 bytes @ 0xE000EDFC) -- CPU_ReadMem(4 bytes @ 0xE0001000) -- CPU_ReadMem(4 bytes @ 0xE000ED88) -- CPU_WriteMem(4 bytes @ 0xE000ED88) -- CPU_ReadMem(4 bytes @ 0xE000ED88) -- CPU_WriteMem(4 bytes @ 0xE000ED88)CoreSight components:ROMTbl 0 @ E00FF000 -- CPU_ReadMem(16 bytes @ 0xE00FF000)
 -- CPU_ReadMem(16 bytes @ 0xE000EFF0) -- CPU_ReadMem(16 bytes @ 0xE000EFE0)ROMTbl 0 [0]: FFF0F000, CID: B105E00D, PID: 000BB00C SCS -- CPU_WriteMem(4 bytes @ 0xE0001000) -- CPU_ReadMem(16 bytes @ 0xE0001FF0) -- CPU_ReadMem(16 bytes @ 0xE0001FE0)ROMTbl 0 [1]: FFF02000, CID: B105E00D, PID: 003BB002 DWT -- CPU_ReadMem(16 bytes @ 0xE0002FF0) -- CPU_ReadMem(16 bytes @ 0xE0002FE0)ROMTbl 0 [2]: FFF03000, CID: B105E00D, PID: 002BB003 FPB -- CPU_ReadMem(16 bytes @ 0xE0000FF0)
 -- CPU_ReadMem(16 bytes @ 0xE0000FE0)ROMTbl 0 [3]: FFF01000, CID: B105E00D, PID: 003BB001 ITM -- CPU_ReadMem(16 bytes @ 0xE00FF010) -- CPU_ReadMem(16 bytes @ 0xE0040FF0) -- CPU_ReadMem(16 bytes @ 0xE0040FE0)ROMTbl 0 [4]: FFF41000, CID: B105900D, PID: 000BB9A1 TPIU
                JLINK_Reset() -- CPU_ReadMem(16 bytes @ 0x20000000) -- CPU_WriteMem(16 bytes @ 0x20000000) -- CPU_ReadMem(4 bytes @ 0xE000EDFC) -- CPU_WriteMem(4 bytes @ 0xE000EDFC) -- CPU_ReadMem(4 bytes @ 0xE0001000) -- CPU_WriteMem(4 bytes @ 0xE0001004) -- CPU_WriteMem(4 bytes @ 0xE000EDFC) -- CPU_WriteMem(16 bytes @ 0x20000000) -- CPU_WriteMem(4 bytes @ 0xE0002000) -- CPU_ReadMem(4 bytes @ 0xE000EDFC) -- CPU_ReadMem(4 bytes @ 0xE0001000) (0041ms, 0041ms total)
                JLINK_Go() -- CPU_ReadMem(4 bytes @ 0xE0001000) -- CPU_WriteMem(4 bytes @ 0xE0001004) (0006ms, 0047ms total)
               (0152ms, 38286ms total)
T10F4 256911:059 JLINK_ExecCommand("ProjectFile = F:\github\yuneec\lgdst_module\rx\atmel\samg55\taisync\proj-rx\jlink.config", ...)  returns 0x00 (0002ms, 38289ms total)
T10F4 256911:071 JLINK_ExecCommand("Device = ATSAMG55J19", ...)Device "ATSAMG55J19" selected.  returns 0x00 (0001ms, 38291ms total)
T10F4 256911:073 JLINK_TIF_Select(JLINKARM_TIF_SWD)  returns 0x00 (0001ms, 38292ms total)
T10F4 256911:075 JLINK_SetSpeed(4000) (0001ms, 38294ms total)
T10F4 256911:076 JLINK_ResetPullsRESET(OFF) (0001ms, 38295ms total)
T10F4 256911:077 JLINK_Connect() >0x108 TIF>Found SWD-DP with ID 0x2BA01477 >0x0D TIF> >0x21 TIF> >0x0D TIF> >0x28 TIF> >0x0D TIF> >0x28 TIF> >0x0D TIF> >0x21 TIF> >0x0D TIF> >0x28 TIF> >0x0D TIF> >0x21 TIF> >0x0D TIF> >0x21 TIF> >0x0D TIF> >0x21 TIF> >0x0D TIF> >0x21 TIF> >0x0D TIF> >0x28 TIF> >0x0D TIF> >0x28 TIF> >0x0D TIF> >0x21 TIF> >0x0D TIF> >0x28 TIF> >0x0D TIF> >0x28 TIF> >0x0D TIF> >0x28 TIF> >0x0D TIF> >0x21 TIF> >0x0D TIF> >0x21 TIF> >0x0D TIF> >0x28 TIF> >0x0D TIF> >0x21 TIF> >0x0D TIF>
 >0x21 TIF>Found Cortex-M4 r0p1, Little endian. -- CPU_WriteMem(4 bytes @ 0xE0002000) -- CPU_ReadMem(4 bytes @ 0xE000EDF0) -- CPU_ReadMem(4 bytes @ 0xE0002000)FPUnit: 6 code (BP) slots and 2 literal slots -- CPU_ReadMem(4 bytes @ 0xE000EDFC) -- CPU_ReadMem(4 bytes @ 0xE0001000) -- CPU_WriteMem(4 bytes @ 0xE0001000) -- CPU_ReadMem(4 bytes @ 0xE000ED88) -- CPU_WriteMem(4 bytes @ 0xE000ED88) -- CPU_ReadMem(4 bytes @ 0xE000ED88) -- CPU_WriteMem(4 bytes @ 0xE000ED88)CoreSight components:ROMTbl 0 @ E00FF000
 -- CPU_ReadMem(16 bytes @ 0xE00FF000) -- CPU_ReadMem(16 bytes @ 0xE000EFF0) -- CPU_ReadMem(16 bytes @ 0xE000EFE0)ROMTbl 0 [0]: FFF0F000, CID: B105E00D, PID: 000BB00C SCS -- CPU_ReadMem(16 bytes @ 0xE0001FF0) -- CPU_ReadMem(16 bytes @ 0xE0001FE0)ROMTbl 0 [1]: FFF02000, CID: B105E00D, PID: 003BB002 DWT -- CPU_ReadMem(16 bytes @ 0xE0002FF0) -- CPU_ReadMem(16 bytes @ 0xE0002FE0)ROMTbl 0 [2]: FFF03000, CID: B105E00D, PID: 002BB003 FPB -- CPU_ReadMem(16 bytes @ 0xE0000FF0)
 -- CPU_ReadMem(16 bytes @ 0xE0000FE0)ROMTbl 0 [3]: FFF01000, CID: B105E00D, PID: 003BB001 ITM -- CPU_ReadMem(16 bytes @ 0xE00FF010) -- CPU_ReadMem(16 bytes @ 0xE0040FF0) -- CPU_ReadMem(16 bytes @ 0xE0040FE0)ROMTbl 0 [4]: FFF41000, CID: B105900D, PID: 000BB9A1 TPIU  returns 0x00 (0117ms, 38412ms total)
T10F4 256911:195 JLINK_WriteMem(0xE0001020, 0x0004 Bytes, ...) - Data: 00 00 00 00 -- CPU is running -- CPU_WriteMem(4 bytes @ 0xE0001020)  returns 0x04 (0004ms, 38417ms total)
T10F4 256911:200 JLINK_WriteMem(0xE0001024, 0x0004 Bytes, ...) - Data: 00 00 00 00 -- CPU is running -- CPU_WriteMem(4 bytes @ 0xE0001024)  returns 0x04 (0002ms, 38420ms total)
T10F4 256911:203 JLINK_WriteMem(0xE0001028, 0x0004 Bytes, ...) - Data: 00 00 00 00 -- CPU is running -- CPU_WriteMem(4 bytes @ 0xE0001028)  returns 0x04 (0002ms, 38423ms total)
T10F4 256911:206 JLINK_WriteMem(0xE0001030, 0x0004 Bytes, ...) - Data: 00 00 00 00 -- CPU is running -- CPU_WriteMem(4 bytes @ 0xE0001030)  returns 0x04 (0003ms, 38427ms total)
T10F4 256911:209 JLINK_WriteMem(0xE0001034, 0x0004 Bytes, ...) - Data: 00 00 00 00 -- CPU is running -- CPU_WriteMem(4 bytes @ 0xE0001034)  returns 0x04 (0004ms, 38431ms total)
T10F4 256911:214 JLINK_WriteMem(0xE0001038, 0x0004 Bytes, ...) - Data: 00 00 00 00 -- CPU is running -- CPU_WriteMem(4 bytes @ 0xE0001038)  returns 0x04 (0003ms, 38435ms total)
T10F4 256911:217 JLINK_WriteMem(0xE0001040, 0x0004 Bytes, ...) - Data: 00 00 00 00 -- CPU is running -- CPU_WriteMem(4 bytes @ 0xE0001040)  returns 0x04 (0004ms, 38439ms total)
T10F4 256911:221 JLINK_WriteMem(0xE0001044, 0x0004 Bytes, ...) - Data: 00 00 00 00 -- CPU is running -- CPU_WriteMem(4 bytes @ 0xE0001044)  returns 0x04 (0003ms, 38442ms total)
T10F4 256911:224 JLINK_WriteMem(0xE0001048, 0x0004 Bytes, ...) - Data: 00 00 00 00 -- CPU is running -- CPU_WriteMem(4 bytes @ 0xE0001048)  returns 0x04 (0003ms, 38445ms total)
T10F4 256911:227 JLINK_WriteMem(0xE0001050, 0x0004 Bytes, ...) - Data: 00 00 00 00 -- CPU is running -- CPU_WriteMem(4 bytes @ 0xE0001050)  returns 0x04 (0004ms, 38449ms total)
T10F4 256911:231 JLINK_WriteMem(0xE0001054, 0x0004 Bytes, ...) - Data: 00 00 00 00 -- CPU is running -- CPU_WriteMem(4 bytes @ 0xE0001054)  returns 0x04 (0003ms, 38452ms total)
T10F4 256911:235 JLINK_WriteMem(0xE0001058, 0x0004 Bytes, ...) - Data: 00 00 00 00 -- CPU is running -- CPU_WriteMem(4 bytes @ 0xE0001058)  returns 0x04 (0003ms, 38456ms total)
T10F4 256911:238 JLINK_Halt()  returns 0x00 (0007ms, 38463ms total)
T10F4 256911:246 JLINK_WriteMem(0x400E0A04, 0x0004 Bytes, ...) - Data: 0B 01 00 5A -- CPU_WriteMem(4 bytes @ 0x400E0A04)  returns 0x04 (0003ms, 38467ms total)
T10F4 256911:249 JLINK_ReadMem (0x400E0A08, 0x0004 Bytes, ...) -- CPU_ReadMem(4 bytes @ 0x400E0A08) - Data: 01 00 00 00  returns 0x00 (0003ms, 38470ms total)
T10F4 256911:252 JLINK_Reset() -- CPU_ReadMem(16 bytes @ 0x20000000) -- CPU_WriteMem(16 bytes @ 0x20000000) -- CPU_ReadMem(4 bytes @ 0xE000EDFC) -- CPU_WriteMem(4 bytes @ 0xE000EDFC) -- CPU_ReadMem(4 bytes @ 0xE0001000) -- CPU_WriteMem(4 bytes @ 0xE000EDFC) -- CPU_WriteMem(16 bytes @ 0x20000000) -- CPU_WriteMem(4 bytes @ 0xE0002000) -- CPU_ReadMem(4 bytes @ 0xE000EDFC) -- CPU_ReadMem(4 bytes @ 0xE0001000) (0047ms, 38517ms total)
T10F4 256911:304 JLINK_JTAG_GetDeviceID(DeviceIndex = 0)  returns 0x00 (0002ms, 38519ms total)
T10F4 256911:306 JLINK_ReadMemU32(0x400E0740, 0x0001 Items, ...) -- CPU_ReadMem(4 bytes @ 0x400E0740) - Data: E0 0A 57 24  returns 0x01 (0002ms, 38521ms total)
T10F4 256911:308 JLINK_ReadMemU32(0x400E0744, 0x0001 Items, ...) -- CPU_ReadMem(4 bytes @ 0x400E0744) - Data: 00 00 00 00  returns 0x01 (0005ms, 38526ms total)
T1808 256911:315 JLINK_IsHalted()  returns TRUE (0008ms, 38534ms total)
T1808 256911:323 JLINK_GetMOEs(...) -- CPU_ReadMem(4 bytes @ 0xE000ED30) -- CPU_WriteMem(4 bytes @ 0xE000ED30)  returns 0x01 (0057ms, 38591ms total)
T10F4 256911:381 JLINK_BeginDownload(Flags = 0x00) (0001ms, 38593ms total)
T1808 256911:382 JLINK_ReadReg(R15 (PC))  returns 0xFFFFFFFE (0000ms, 38593ms total)
T10F4 256911:382 JLINK_WriteMem(0x00400000, 0x4000 Bytes, ...) - Data: B8 69 01 20 AD 8A 40 00 7D 8B 40 00 7D 8B 40 00 ...  returns 0x4000 (0001ms, 38594ms total)
T10F4 256911:384 JLINK_WriteMem(0x00404000, 0xC310 Bytes, ...) - Data: 9C B2 00 20 C5 62 40 00 80 B4 00 AF 07 4B DB 88 ...  returns 0xC310 (0000ms, 38595ms total)
T10F4 256911:385 JLINK_WriteMem(0x00410310, 0x0008 Bytes, ...) - Data: E0 C8 FF 7F 01 00 00 00  returns 0x08 (0001ms, 38597ms total)
T10F4 256911:386 JLINK_WriteMem(0x00410318, 0x16B0 Bytes, ...) - Data: BF F3 5F 8F 01 38 FB D1 70 47 00 BF 80 B4 89 B0 ...  returns 0x16B0 (0001ms, 38598ms total)
T1808 256911:586 JLINK_IsHalted()  returns TRUE (0001ms, 38599ms total)
T22D8 256911:638 JLINK_Halt()  returns 0x00 (0001ms, 38599ms total)
T22D8 256911:639 JLINK_ReadReg(R15 (PC)) -- -------------------------------------- -- Start of determining dirty areas in flash cache -- End of determining dirty areas -- Start of preparing flash programming -- Calculating RAM usage -- RAM usage = 5940 Bytes -- Preserving registers -- Preparing memory -- Determining CPU clock frequency -- CPU clock frequency: 8492 kHz -- CPU frequency = 8492 kHz -- Preparing target -- Downloading RAMCode -- Using alternate TurboMode RAMCode -- Checking target RAM
 -- Preparing RAMCode -- End of preparing flash programmingCPU is running at low speed (8492 kHz). -- CPU is running at 8492 kHz. -- Start of comparing flash -- CRC check was estimated as fastest method -- Comparing range 0x400000 - 0x403FFF (32 Sectors, 16 KB), using multi-block CRC calculation -- CRC does not match for sectors 0-31 -- Comparing range 0x404000 - 0x411FFF (14 Sectors, 56 KB), using multi-block CRC calculation -- CRC does not match for sectors 0-13 -- End of comparing flash
 -- Start of erasing sectors -- End of erasing sectors -- Start of flash programming -- Programming range 0x00400000 - 0x00403FFF (032 Sectors, 16 KB) -- Programming range 0x00404000 - 0x00407FFF (004 Sectors, 16 KB) -- Programming range 0x00408000 - 0x0040BFFF (004 Sectors, 16 KB) -- Programming range 0x0040C000 - 0x0040FFFF (004 Sectors, 16 KB) -- Programming range 0x00410000 - 0x00411FFF (002 Sectors, 8 KB) -- End of flash programming -- Flash programming performed for 2 ranges (73728 bytes)
 -- 0x400000 - 0x403FFF (032 Sectors, 16 KB) -- 0x404000 - 0x411FFF (014 Sectors, 56 KB) -- Start of verifying flash -- Checksum calculation was estimated as fastest method -- Checksum calculation was estimated as fastest method -- End of verifying flash -- Start of restoring -- Restore RAMCode -- Restore content of target memory -- Restore target -- Restore memory -- Restore content of registers -- End of restoring
 -- Total time needed: 0.664s (Prepare: 0.123s, Compare: 0.036s, Erase: 0.000s, Program: 0.469s, Verify: 0.023s, Restore: 0.010s)  returns 0xFFFFFFFE (0669ms, 39268ms total)
T1808 256912:308 JLINK_IsHalted()  returns TRUE (0002ms, 39270ms total)
T22D8 256912:311 JLINK_ReadReg(R13 (SP))  returns 0xFFFFFFFC (0001ms, 39271ms total)
T22D8 256912:397 JLINK_ReadReg(R0)  returns 0x00000000 (0002ms, 39273ms total)
T22D8 256912:399 JLINK_ReadReg(R1)  returns 0x00000000 (0001ms, 39274ms total)
T22D8 256912:400 JLINK_ReadReg(R2)  returns 0x00000000 (0001ms, 39275ms total)
T22D8 256912:401 JLINK_ReadReg(R3)  returns 0x00000000 (0001ms, 39276ms total)
T22D8 256912:402 JLINK_ReadReg(R4)  returns 0x00000000 (0001ms, 39277ms total)
T22D8 256912:403 JLINK_ReadReg(R5)  returns 0x00000000 (0001ms, 39278ms total)
T22D8 256912:405 JLINK_ReadReg(R6)  returns 0x00000000 (0000ms, 39279ms total)
T22D8 256912:406 JLINK_ReadReg(R7)  returns 0x00000000 (0000ms, 39280ms total)
T22D8 256912:407 JLINK_ReadReg(R8)  returns 0x00000000 (0001ms, 39282ms total)
T22D8 256912:408 JLINK_ReadReg(R9)  returns 0x00000000 (0001ms, 39283ms total)
T22D8 256912:410 JLINK_ReadReg(R10)  returns 0x00000000 (0000ms, 39284ms total)
T22D8 256912:411 JLINK_ReadReg(R11)  returns 0x00000000 (0000ms, 39285ms total)
T22D8 256912:411 JLINK_ReadReg(R12)  returns 0x00000000 (0001ms, 39286ms total)
T22D8 256912:412 JLINK_ReadReg(R13 (SP))  returns 0xFFFFFFFC (0000ms, 39286ms total)
T22D8 256912:412 JLINK_ReadReg(R14)  returns 0xFFFFFFFF (0001ms, 39287ms total)
T22D8 256912:413 JLINK_ReadReg(R15 (PC))  returns 0xFFFFFFFE (0001ms, 39288ms total)
T22D8 256912:414 JLINK_ReadReg(XPSR)  returns 0x01000000 (0001ms, 39289ms total)
T22D8 256912:415 JLINK_ReadReg(MSP)  returns 0xFFFFFFFC (0001ms, 39290ms total)
T22D8 256912:416 JLINK_ReadReg(PSP)  returns 0x00000000 (0001ms, 39291ms total)
T22D8 256912:417 JLINK_ReadReg(PRIMASK)  returns 0x00000000 (0001ms, 39292ms total)
T22D8 256912:418 JLINK_ReadReg(BASEPRI)  returns 0x00000000 (0001ms, 39293ms total)
T22D8 256912:419 JLINK_ReadReg(FAULTMASK)  returns 0x00000000 (0001ms, 39294ms total)
T22D8 256912:420 JLINK_ReadReg(CONTROL)  returns 0x00000000 (0001ms, 39295ms total)
T22D8 256912:421 JLINK_ReadReg(FPSCR)  returns 0x00000000 (0009ms, 39304ms total)
T22D8 256912:430 JLINK_ReadReg(FPS0)  returns 0x00000000 (0001ms, 39305ms total)
T22D8 256912:431 JLINK_ReadReg(FPS1)  returns 0x00000000 (0001ms, 39306ms total)
T22D8 256912:433 JLINK_ReadReg(FPS2)  returns 0x00000000 (0000ms, 39307ms total)
T22D8 256912:434 JLINK_ReadReg(FPS3)  returns 0x00000000 (0000ms, 39308ms total)
T22D8 256912:435 JLINK_ReadReg(FPS4)  returns 0x00000000 (0001ms, 39310ms total)
T22D8 256912:436 JLINK_ReadReg(FPS5)  returns 0x00000000 (0001ms, 39311ms total)
T22D8 256912:437 JLINK_ReadReg(FPS6)  returns 0x00000000 (0001ms, 39312ms total)
T22D8 256912:438 JLINK_ReadReg(FPS7)  returns 0x00000000 (0000ms, 39312ms total)
T22D8 256912:439 JLINK_ReadReg(FPS8)  returns 0x00000000 (0000ms, 39313ms total)
T22D8 256912:440 JLINK_ReadReg(FPS9)  returns 0x00000000 (0000ms, 39314ms total)
T22D8 256912:441 JLINK_ReadReg(FPS10)  returns 0x00000000 (0000ms, 39315ms total)
T22D8 256912:441 JLINK_ReadReg(FPS11)  returns 0x00000000 (0001ms, 39316ms total)
T22D8 256912:442 JLINK_ReadReg(FPS12)  returns 0x00000000 (0001ms, 39317ms total)
T22D8 256912:443 JLINK_ReadReg(FPS13)  returns 0x00000000 (0001ms, 39318ms total)
T22D8 256912:445 JLINK_ReadReg(FPS14)  returns 0x00000000 (0000ms, 39319ms total)
T22D8 256912:446 JLINK_ReadReg(FPS15)  returns 0x00000000 (0000ms, 39320ms total)
T22D8 256912:446 JLINK_ReadReg(FPS16)  returns 0x00000000 (0001ms, 39321ms total)
T22D8 256912:447 JLINK_ReadReg(FPS17)  returns 0x00000000 (0001ms, 39322ms total)
T22D8 256912:449 JLINK_ReadReg(FPS18)  returns 0x00000000 (0000ms, 39323ms total)
T22D8 256912:450 JLINK_ReadReg(FPS19)  returns 0x00000000 (0000ms, 39323ms total)
T22D8 256912:450 JLINK_ReadReg(FPS20)  returns 0x00000000 (0001ms, 39324ms total)
T22D8 256912:451 JLINK_ReadReg(FPS21)  returns 0x00000000 (0001ms, 39325ms total)
T22D8 256912:452 JLINK_ReadReg(FPS22)  returns 0x00000000 (0001ms, 39326ms total)
T22D8 256912:453 JLINK_ReadReg(FPS23)  returns 0x00000000 (0001ms, 39327ms total)
T22D8 256912:454 JLINK_ReadReg(FPS24)  returns 0x00000000 (0000ms, 39327ms total)
T22D8 256912:454 JLINK_ReadReg(FPS25)  returns 0x00000000 (0001ms, 39328ms total)
T22D8 256912:455 JLINK_ReadReg(FPS26)  returns 0x00000000 (0001ms, 39329ms total)
T22D8 256912:456 JLINK_ReadReg(FPS27)  returns 0x00000000 (0001ms, 39330ms total)
T22D8 256912:457 JLINK_ReadReg(FPS28)  returns 0x00000000 (0001ms, 39331ms total)
T22D8 256912:458 JLINK_ReadReg(FPS29)  returns 0x00000000 (0001ms, 39332ms total)
T22D8 256912:459 JLINK_ReadReg(FPS30)  returns 0x00000000 (0001ms, 39333ms total)
T22D8 256912:460 JLINK_ReadReg(FPS31)  returns 0x00000000 (0000ms, 39333ms total)
T22D8 256912:485 JLINK_EndDownload()  returns 0x00 (0001ms, 39335ms total)
T22D8 256912:486 JLINK_Reset() -- CPU_ReadMem(16 bytes @ 0x20000000) -- CPU_WriteMem(16 bytes @ 0x20000000) -- CPU_ReadMem(4 bytes @ 0xE000EDFC) -- CPU_WriteMem(4 bytes @ 0xE000EDFC) -- CPU_ReadMem(4 bytes @ 0xE0001000) -- CPU_WriteMem(4 bytes @ 0xE000EDFC) -- CPU_WriteMem(16 bytes @ 0x20000000) -- CPU_WriteMem(4 bytes @ 0xE0002000) -- CPU_ReadMem(4 bytes @ 0xE000EDFC) -- CPU_ReadMem(4 bytes @ 0xE0001000) (0042ms, 39377ms total)
T1808 256912:528 JLINK_IsHalted()  returns TRUE (0001ms, 39378ms total)
T1808 256912:529 JLINK_GetMOEs(...) -- CPU_ReadMem(4 bytes @ 0xE000ED30) -- CPU_WriteMem(4 bytes @ 0xE000ED30)  returns 0x01 (0003ms, 39380ms total)
T1808 256912:533 JLINK_ReadReg(R15 (PC))  returns 0x00408AAC (0001ms, 39382ms total)
T22D8 256912:538 JLINK_ReadReg(R15 (PC))  returns 0x00408AAC (0001ms, 39383ms total)
T22D8 256912:539 JLINK_ReadReg(R13 (SP))  returns 0x200169B8 (0001ms, 39384ms total)
T22D8 256912:550 JLINK_ReadMemHW(0x00408AAC, 0x0004 Bytes, ...) -- CPU_ReadMem(4 bytes @ 0x00408AAC) - Data: 80 B5 84 B0  returns 0x00 (0003ms, 39387ms total)
T22D8 256912:605 JLINK_ReadMemHW(0x00401A7A, 0x0002 Bytes, ...) -- CPU_ReadMem(2 bytes @ 0x00401A7A) - Data: 40 F2  returns 0x00 (0009ms, 39396ms total)
T22D8 256912:615 JLINK_ReadMemHW(0x00401A7C, 0x0002 Bytes, ...) -- CPU_ReadMem(2 bytes @ 0x00401A7C) - Data: 05 33  returns 0x00 (0002ms, 39398ms total)
T22D8 256912:618 JLINK_ReadMemHW(0x00401A7E, 0x0002 Bytes, ...) -- CPU_ReadMem(2 bytes @ 0x00401A7E) - Data: FB 60  returns 0x00 (0002ms, 39400ms total)
T22D8 256912:620 JLINK_ReadMemHW(0x00401A80, 0x0002 Bytes, ...) -- CPU_ReadMem(2 bytes @ 0x00401A80) - Data: 07 F1  returns 0x00 (0002ms, 39402ms total)
T22D8 256912:623 JLINK_ReadMemHW(0x00401B10, 0x0002 Bytes, ...) -- CPU_ReadMem(2 bytes @ 0x00401B10) - Data: 21 4B  returns 0x00 (0004ms, 39406ms total)
T10F4 256912:629 JLINK_GetNumBPUnits(Type = 0xFFFFFF02)  returns 0x06 (0000ms, 39406ms total)
T10F4 256912:630 JLINK_SetBPEx(Addr = 0x00401B10, Type = 0xFFFFFFF2)  returns 0x00000001 (0001ms, 39408ms total)
T10F4 256912:631 JLINK_GetBPInfo(BPHandle = 1)  returns 0x00 (0001ms, 39409ms total)
T22D8 256912:657 JLINK_ReadMemHW(0x00401A7A, 0x0002 Bytes, ...) -- CPU_ReadMem(2 bytes @ 0x00401A7A) - Data: 40 F2  returns 0x00 (0006ms, 39415ms total)
T22D8 256912:663 JLINK_ReadMemHW(0x00401A7C, 0x0002 Bytes, ...) -- CPU_ReadMem(2 bytes @ 0x00401A7C) - Data: 05 33  returns 0x00 (0002ms, 39417ms total)
T22D8 256912:666 JLINK_ReadMemHW(0x00401A7E, 0x0002 Bytes, ...) -- CPU_ReadMem(2 bytes @ 0x00401A7E) - Data: FB 60  returns 0x00 (0002ms, 39419ms total)
T22D8 256912:669 JLINK_ReadMemHW(0x00401A80, 0x0002 Bytes, ...) -- CPU_ReadMem(2 bytes @ 0x00401A80) - Data: 07 F1  returns 0x00 (0002ms, 39421ms total)
T22D8 256912:674 JLINK_ReadMemHW(0x00401B80, 0x0002 Bytes, ...) -- CPU_ReadMem(2 bytes @ 0x00401B80) - Data: BB 7C  returns 0x00 (0003ms, 39425ms total)
T10F4 256912:678 JLINK_SetBPEx(Addr = 0x00401B80, Type = 0xFFFFFFF2)  returns 0x00000002 (0001ms, 39426ms total)
T10F4 256912:679 JLINK_GetBPInfo(BPHandle = 2)  returns 0x00 (0001ms, 39427ms total)
T22D8 256912:700 JLINK_ReadMemHW(0x0040AF4C, 0x0001 Bytes, ...) -- CPU_ReadMem(1 bytes @ 0x0040AF4C) - Data: 2D  returns 0x00 (0004ms, 39431ms total)
T1808 256912:735 JLINK_IsHalted()  returns TRUE (0002ms, 39433ms total)
T22D8 256912:741 JLINK_ReadReg(R15 (PC))  returns 0x00408AAC (0001ms, 39432ms total)
T22D8 256912:742 JLINK_SetBPEx(Addr = 0x0040AF4C, Type = 0xFFFFFF02)  returns 0x00000003 (0000ms, 39432ms total)
T22D8 256912:742 JLINK_GetBPInfo(BPHandle = 3)  returns 0x00 (0000ms, 39432ms total)
T22D8 256912:743 JLINK_Go() -- CPU_WriteMem(4 bytes @ 0xE0002000) -- CPU_WriteMem(4 bytes @ 0xE0002000) -- CPU_WriteMem(4 bytes @ 0xE0002000) -- CPU_ReadMem(4 bytes @ 0xE0001000) -- CPU_WriteMem(4 bytes @ 0xE0002008) -- CPU_WriteMem(4 bytes @ 0xE000200C) -- CPU_WriteMem(4 bytes @ 0xE0002010) -- CPU_WriteMem(4 bytes @ 0xE0002014) -- CPU_WriteMem(4 bytes @ 0xE0002018) -- CPU_WriteMem(4 bytes @ 0xE000201C) -- CPU_WriteMem(4 bytes @ 0xE0001004) (0015ms, 39448ms total)
T1808 256912:759 JLINK_IsHalted()  returns FALSE (0003ms, 39452ms total)
T1808 256912:784 JLINK_IsHalted()  returns FALSE (0003ms, 39452ms total)
T1808 256912:869 JLINK_IsHalted()  returns TRUE (0006ms, 39455ms total)
T1808 256912:876 JLINK_GetMOEs(...) -- CPU_ReadMem(4 bytes @ 0xE000ED30) -- CPU_WriteMem(4 bytes @ 0xE000ED30)  returns 0x01 (0003ms, 39452ms total)
T1808 256912:879 JLINK_ReadReg(R15 (PC))  returns 0x0040AF4C (0001ms, 39453ms total)
T1808 256912:880 JLINK_GetBPInfo(BPHandle = 3)  returns 0x00 (0001ms, 39454ms total)
T1808 256912:881 JLINK_ClrBPEx(BPHandle = 0x00000003)  returns 0x00 (0001ms, 39455ms total)
T22D8 256912:888 JLINK_ReadReg(R15 (PC))  returns 0x0040AF4C (0001ms, 39457ms total)
T22D8 256912:889 JLINK_ReadReg(R13 (SP))  returns 0x200169A0 (0001ms, 39458ms total)
T22D8 256912:891 JLINK_ReadMemHW(0x0040AF4C, 0x0004 Bytes, ...) -- CPU_ReadMem(4 bytes @ 0x0040AF4C) - Data: 2D E9 F0 43  returns 0x00 (0002ms, 39461ms total)
T10F4 256913:024 JLINK_ReadMem (0x40000000, 0x000E Bytes, ...) -- CPU_ReadMem(14 bytes @ 0x40000000) - Data: 00 00 00 00 00 00 00 00 00 00 00 00 00 00  returns 0x00 (0004ms, 39465ms total)
T10F4 256913:029 JLINK_ReadMem (0x40000000, 0x000E Bytes, ...) -- CPU_ReadMem(14 bytes @ 0x40000000) - Data: 00 00 00 00 00 00 00 00 00 00 00 00 00 00  returns 0x00 (0004ms, 39469ms total)
T10F4 256913:077 JLINK_GetDebugInfo(0x100) -- Value=0xE00FF003  returns 0x00 (0001ms, 39470ms total)
T10F4 256913:078 JLINK_ReadMem (0xE00FFFF0, 0x0010 Bytes, ...) -- CPU_ReadMem(16 bytes @ 0xE00FFFF0) - Data: 0D 00 00 00 10 00 00 00 05 00 00 00 B1 00 00 00  returns 0x00 (0006ms, 39476ms total)
T1808 256913:084 JLINK_IsHalted()  returns TRUE (0001ms, 39477ms total)
T10F4 256913:085 JLINK_ReadMem (0xE00FFFD0, 0x0020 Bytes, ...) -- CPU_ReadMem(32 bytes @ 0xE00FFFD0) - Data: 04 00 00 00 00 00 00 00 00 00 00 00 00 00 00 00 ...  returns 0x00 (0004ms, 39481ms total)
T10F4 256913:089 JLINK_ReadMemU32(0xE00FF000, 0x0001 Items, ...) -- CPU_ReadMem(4 bytes @ 0xE00FF000) - Data: 03 F0 F0 FF  returns 0x01 (0002ms, 39483ms total)
T10F4 256913:091 JLINK_ReadMem (0xE000EFF0, 0x0010 Bytes, ...) -- CPU_ReadMem(16 bytes @ 0xE000EFF0) - Data: 0D 00 00 00 E0 00 00 00 05 00 00 00 B1 00 00 00  returns 0x00 (0003ms, 39486ms total)
T10F4 256913:094 JLINK_ReadMem (0xE000EFD0, 0x0020 Bytes, ...) -- CPU_ReadMem(32 bytes @ 0xE000EFD0) - Data: 04 00 00 00 00 00 00 00 00 00 00 00 00 00 00 00 ...  returns 0x00 (0002ms, 39488ms total)
T10F4 256913:096 JLINK_ReadMemU32(0xE00FF004, 0x0001 Items, ...) -- CPU_ReadMem(4 bytes @ 0xE00FF004) - Data: 03 20 F0 FF  returns 0x01 (0003ms, 39491ms total)
T10F4 256913:099 JLINK_ReadMem (0xE0001FF0, 0x0010 Bytes, ...) -- CPU_ReadMem(16 bytes @ 0xE0001FF0) - Data: 0D 00 00 00 E0 00 00 00 05 00 00 00 B1 00 00 00  returns 0x00 (0002ms, 39493ms total)
T10F4 256913:101 JLINK_ReadMem (0xE0001FD0, 0x0020 Bytes, ...) -- CPU_ReadMem(32 bytes @ 0xE0001FD0) - Data: 04 00 00 00 00 00 00 00 00 00 00 00 00 00 00 00 ...  returns 0x00 (0003ms, 39496ms total)
T10F4 256913:104 JLINK_ReadMemU32(0xE00FF008, 0x0001 Items, ...) -- CPU_ReadMem(4 bytes @ 0xE00FF008) - Data: 03 30 F0 FF  returns 0x01 (0003ms, 39499ms total)
T10F4 256913:108 JLINK_ReadMem (0xE0002FF0, 0x0010 Bytes, ...) -- CPU_ReadMem(16 bytes @ 0xE0002FF0) - Data: 0D 00 00 00 E0 00 00 00 05 00 00 00 B1 00 00 00  returns 0x00 (0002ms, 39502ms total)
T10F4 256913:110 JLINK_ReadMem (0xE0002FD0, 0x0020 Bytes, ...) -- CPU_ReadMem(32 bytes @ 0xE0002FD0) - Data: 04 00 00 00 00 00 00 00 00 00 00 00 00 00 00 00 ...  returns 0x00 (0003ms, 39505ms total)
T10F4 256913:113 JLINK_ReadMemU32(0xE00FF00C, 0x0001 Items, ...) -- CPU_ReadMem(4 bytes @ 0xE00FF00C) - Data: 03 10 F0 FF  returns 0x01 (0003ms, 39508ms total)
T10F4 256913:117 JLINK_ReadMem (0xE0000FF0, 0x0010 Bytes, ...) -- CPU_ReadMem(16 bytes @ 0xE0000FF0) - Data: 0D 00 00 00 E0 00 00 00 05 00 00 00 B1 00 00 00  returns 0x00 (0002ms, 39511ms total)
T10F4 256913:119 JLINK_ReadMem (0xE0000FD0, 0x0020 Bytes, ...) -- CPU_ReadMem(32 bytes @ 0xE0000FD0) - Data: 04 00 00 00 00 00 00 00 00 00 00 00 00 00 00 00 ...  returns 0x00 (0001ms, 39512ms total)
T10F4 256913:121 JLINK_ReadMemU32(0xE00FF010, 0x0001 Items, ...) -- CPU_ReadMem(4 bytes @ 0xE00FF010) - Data: 03 10 F4 FF  returns 0x01 (0003ms, 39516ms total)
T10F4 256913:124 JLINK_ReadMem (0xE0040FF0, 0x0010 Bytes, ...) -- CPU_ReadMem(16 bytes @ 0xE0040FF0) - Data: 0D 00 00 00 90 00 00 00 05 00 00 00 B1 00 00 00  returns 0x00 (0002ms, 39518ms total)
T10F4 256913:127 JLINK_ReadMem (0xE0040FD0, 0x0020 Bytes, ...) -- CPU_ReadMem(32 bytes @ 0xE0040FD0) - Data: 04 00 00 00 00 00 00 00 00 00 00 00 00 00 00 00 ...  returns 0x00 (0003ms, 39522ms total)
T10F4 256913:130 JLINK_ReadMemU32(0xE00FF014, 0x0001 Items, ...) -- CPU_ReadMem(4 bytes @ 0xE00FF014) - Data: 02 20 F4 FF  returns 0x01 (0002ms, 39524ms total)
T10F4 256913:132 JLINK_ReadMemU32(0xE00FF018, 0x0001 Items, ...) -- CPU_ReadMem(4 bytes @ 0xE00FF018) - Data: 00 00 00 00  returns 0x01 (0003ms, 39527ms total)
T10F4 256913:135 JLINK_GetDebugInfo(0x100) -- Value=0xE00FF003  returns 0x00 (0002ms, 39529ms total)
T10F4 256913:137 JLINK_ReadMem (0xE00FFFF0, 0x0010 Bytes, ...) -- CPU_ReadMem(16 bytes @ 0xE00FFFF0) - Data: 0D 00 00 00 10 00 00 00 05 00 00 00 B1 00 00 00  returns 0x00 (0003ms, 39532ms total)
T10F4 256913:140 JLINK_ReadMem (0xE00FFFD0, 0x0020 Bytes, ...) -- CPU_ReadMem(32 bytes @ 0xE00FFFD0) - Data: 04 00 00 00 00 00 00 00 00 00 00 00 00 00 00 00 ...  returns 0x00 (0002ms, 39534ms total)
T10F4 256913:143 JLINK_ReadMemU32(0xE00FF000, 0x0001 Items, ...) -- CPU_ReadMem(4 bytes @ 0xE00FF000) - Data: 03 F0 F0 FF  returns 0x01 (0002ms, 39537ms total)
T10F4 256913:146 JLINK_ReadMem (0xE000EFF0, 0x0010 Bytes, ...) -- CPU_ReadMem(16 bytes @ 0xE000EFF0) - Data: 0D 00 00 00 E0 00 00 00 05 00 00 00 B1 00 00 00  returns 0x00 (0003ms, 39541ms total)
T10F4 256913:149 JLINK_ReadMem (0xE000EFD0, 0x0020 Bytes, ...) -- CPU_ReadMem(32 bytes @ 0xE000EFD0) - Data: 04 00 00 00 00 00 00 00 00 00 00 00 00 00 00 00 ...  returns 0x00 (0002ms, 39543ms total)
T10F4 256913:152 JLINK_ReadMemU32(0xE00FF004, 0x0001 Items, ...) -- CPU_ReadMem(4 bytes @ 0xE00FF004) - Data: 03 20 F0 FF  returns 0x01 (0003ms, 39547ms total)
T10F4 256913:155 JLINK_ReadMem (0xE0001FF0, 0x0010 Bytes, ...) -- CPU_ReadMem(16 bytes @ 0xE0001FF0) - Data: 0D 00 00 00 E0 00 00 00 05 00 00 00 B1 00 00 00  returns 0x00 (0002ms, 39549ms total)
T10F4 256913:158 JLINK_ReadMem (0xE0001FD0, 0x0020 Bytes, ...) -- CPU_ReadMem(32 bytes @ 0xE0001FD0) - Data: 04 00 00 00 00 00 00 00 00 00 00 00 00 00 00 00 ...  returns 0x00 (0002ms, 39552ms total)
T10F4 256913:160 JLINK_ReadMemU32(0xE00FF008, 0x0001 Items, ...) -- CPU_ReadMem(4 bytes @ 0xE00FF008) - Data: 03 30 F0 FF  returns 0x01 (0002ms, 39554ms total)
T10F4 256913:162 JLINK_ReadMem (0xE0002FF0, 0x0010 Bytes, ...) -- CPU_ReadMem(16 bytes @ 0xE0002FF0) - Data: 0D 00 00 00 E0 00 00 00 05 00 00 00 B1 00 00 00  returns 0x00 (0002ms, 39556ms total)
T10F4 256913:164 JLINK_ReadMem (0xE0002FD0, 0x0020 Bytes, ...) -- CPU_ReadMem(32 bytes @ 0xE0002FD0) - Data: 04 00 00 00 00 00 00 00 00 00 00 00 00 00 00 00 ...  returns 0x00 (0003ms, 39559ms total)
T10F4 256913:167 JLINK_ReadMemU32(0xE00FF00C, 0x0001 Items, ...) -- CPU_ReadMem(4 bytes @ 0xE00FF00C) - Data: 03 10 F0 FF  returns 0x01 (0002ms, 39561ms total)
T10F4 256913:169 JLINK_ReadMem (0xE0000FF0, 0x0010 Bytes, ...) -- CPU_ReadMem(16 bytes @ 0xE0000FF0) - Data: 0D 00 00 00 E0 00 00 00 05 00 00 00 B1 00 00 00  returns 0x00 (0003ms, 39564ms total)
T10F4 256913:172 JLINK_ReadMem (0xE0000FD0, 0x0020 Bytes, ...) -- CPU_ReadMem(32 bytes @ 0xE0000FD0) - Data: 04 00 00 00 00 00 00 00 00 00 00 00 00 00 00 00 ...  returns 0x00 (0003ms, 39567ms total)
T10F4 256913:175 JLINK_ReadMemU32(0xE00FF010, 0x0001 Items, ...) -- CPU_ReadMem(4 bytes @ 0xE00FF010) - Data: 03 10 F4 FF  returns 0x01 (0002ms, 39569ms total)
T10F4 256913:177 JLINK_ReadMem (0xE0040FF0, 0x0010 Bytes, ...) -- CPU_ReadMem(16 bytes @ 0xE0040FF0) - Data: 0D 00 00 00 90 00 00 00 05 00 00 00 B1 00 00 00  returns 0x00 (0003ms, 39572ms total)
T10F4 256913:180 JLINK_ReadMem (0xE0040FD0, 0x0020 Bytes, ...) -- CPU_ReadMem(32 bytes @ 0xE0040FD0) - Data: 04 00 00 00 00 00 00 00 00 00 00 00 00 00 00 00 ...  returns 0x00 (0002ms, 39574ms total)
T10F4 256913:183 JLINK_ReadMemU32(0xE00FF014, 0x0001 Items, ...) -- CPU_ReadMem(4 bytes @ 0xE00FF014) - Data: 02 20 F4 FF  returns 0x01 (0002ms, 39577ms total)
T10F4 256913:185 JLINK_ReadMemU32(0xE00FF018, 0x0001 Items, ...) -- CPU_ReadMem(4 bytes @ 0xE00FF018) - Data: 00 00 00 00  returns 0x01 (0002ms, 39579ms total)
T10F4 256913:187 JLINK_GetDebugInfo(0x100) -- Value=0xE00FF003  returns 0x00 (0001ms, 39580ms total)
T10F4 256913:188 JLINK_ReadMem (0xE00FFFF0, 0x0010 Bytes, ...) -- CPU_ReadMem(16 bytes @ 0xE00FFFF0) - Data: 0D 00 00 00 10 00 00 00 05 00 00 00 B1 00 00 00  returns 0x00 (0002ms, 39582ms total)
T10F4 256913:190 JLINK_ReadMem (0xE00FFFD0, 0x0020 Bytes, ...) -- CPU_ReadMem(32 bytes @ 0xE00FFFD0) - Data: 04 00 00 00 00 00 00 00 00 00 00 00 00 00 00 00 ...  returns 0x00 (0003ms, 39585ms total)
T10F4 256913:193 JLINK_ReadMemU32(0xE00FF000, 0x0001 Items, ...) -- CPU_ReadMem(4 bytes @ 0xE00FF000) - Data: 03 F0 F0 FF  returns 0x01 (0003ms, 39588ms total)
T10F4 256913:196 JLINK_ReadMem (0xE000EFF0, 0x0010 Bytes, ...) -- CPU_ReadMem(16 bytes @ 0xE000EFF0) - Data: 0D 00 00 00 E0 00 00 00 05 00 00 00 B1 00 00 00  returns 0x00 (0003ms, 39591ms total)
T10F4 256913:199 JLINK_ReadMem (0xE000EFD0, 0x0020 Bytes, ...) -- CPU_ReadMem(32 bytes @ 0xE000EFD0) - Data: 04 00 00 00 00 00 00 00 00 00 00 00 00 00 00 00 ...  returns 0x00 (0002ms, 39593ms total)
T10F4 256913:202 JLINK_ReadMemU32(0xE00FF004, 0x0001 Items, ...) -- CPU_ReadMem(4 bytes @ 0xE00FF004) - Data: 03 20 F0 FF  returns 0x01 (0002ms, 39596ms total)
T10F4 256913:204 JLINK_ReadMem (0xE0001FF0, 0x0010 Bytes, ...) -- CPU_ReadMem(16 bytes @ 0xE0001FF0) - Data: 0D 00 00 00 E0 00 00 00 05 00 00 00 B1 00 00 00  returns 0x00 (0002ms, 39598ms total)
T10F4 256913:206 JLINK_ReadMem (0xE0001FD0, 0x0020 Bytes, ...) -- CPU_ReadMem(32 bytes @ 0xE0001FD0) - Data: 04 00 00 00 00 00 00 00 00 00 00 00 00 00 00 00 ...  returns 0x00 (0002ms, 39600ms total)
T10F4 256913:209 JLINK_ReadMemU32(0xE00FF008, 0x0001 Items, ...) -- CPU_ReadMem(4 bytes @ 0xE00FF008) - Data: 03 30 F0 FF  returns 0x01 (0002ms, 39603ms total)
